Sample in Buffer,Sample in Window,TRIGGER,zsys_i/system_ila_0/U0/probe0_1[15:0],user_probe_0[15:0],zsys_i/system_ila_0/U0/probe1_1[15:0],zsys_i/system_ila_0/U0/probe2_1,zsys_i/system_ila_0/U0/probe3_1[15:0],zsys_i/system_ila_0/U0/probe4_1[15:0],zsys_i/system_ila_0/U0/probe5_1,GL0,zsys_i/system_ila_0/U0/probe6_1[2:0],GL1,GL2,zsys_i/system_ila_0/U0/probe7_1,Monitor1[15:0],zsys_i/system_ila_0/U0/net_slot_0_axis_tdata[63:0],Monitor2[15:0],Monitor3[15:0],Monitor4[15:0],zsys_i/system_ila_0/U0/net_slot_0_axis_tvalid,zsys_i/system_ila_0/U0/net_slot_0_axis_tready,zsys_i/system_ila_0/U0/net_slot_0_axis_tlast,zsys_i/system_ila_0/U0/net_slot_1_axis_tdata[63:0],zsys_i/system_ila_0/U0/net_slot_1_axis_tvalid,zsys_i/system_ila_0/U0/net_slot_1_axis_tready,zsys_i/system_ila_0/U0/net_slot_1_axis_tlast,zsys_i/system_ila_0/U0/net_slot_2_axis_tdata[31:0],zsys_i/system_ila_0/U0/net_slot_2_axis_tvalid,zsys_i/system_ila_0/U0/net_slot_2_axis_tready,zsys_i/system_ila_0/U0/net_slot_2_axis_tlast,zsys_i/system_ila_0/U0/SLOT_3_ACC_HANDSHAKE_start_1,zsys_i/system_ila_0/U0/SLOT_3_ACC_HANDSHAKE_done_1,zsys_i/system_ila_0/U0/SLOT_3_ACC_HANDSHAKE_idle_1,zsys_i/system_ila_0/U0/SLOT_3_ACC_HANDSHAKE_ready_1,T_Channel_(i1:s0)_(axis_monitor_0_m_axis)[2:0],T_Channel_(i1:s1)_(axis_AD7403_0_m_axis)[2:0],T_Channel_(i1:s2)_()[2:0]
0,0,1,0007,fffd,fffd,0,0011,ffed,0,1,7,1,1,0,fff8,012100000003fff8,0003,0000,0121,0,1,0,7fff7fff001000fa,0,1,0,00000000,0,0,0,0,0,1,0,"No Streams","No Streams","No Streams"
1,1,0,fffa,fffd,fffd,0,fff3,0007,1,1,7,1,1,0,0003,0121000000030003,0003,0000,0121,0,1,0,7fff7fff001000ec,0,1,0,00000000,0,0,0,0,0,1,0,"No Streams","No Streams","No Streams"
2,2,0,ffff,0002,0002,0,fffe,0010,1,0,0,0,0,0,0002,01210000fffe0002,fffe,0000,0121,0,1,0,7fff7fff000400ec,0,1,0,00000000,0,0,0,1,0,0,0,"No Streams","No Streams","No Streams"
3,3,0,0004,0005,0005,0,0018,fff9,1,0,0,0,0,0,ffff,01210000fffbffff,fffb,0000,0121,0,1,0,7fff7fff002600e8,0,1,0,00000000,0,0,0,1,0,0,0,"No Streams","No Streams","No Streams"
4,4,0,0005,0002,0002,0,fff1,000f,1,1,7,1,1,0,fffd,01210000fffefffd,fffe,0000,0121,0,1,0,7fff7fff000a00e6,0,1,0,00000000,0,0,0,1,0,0,0,"No Streams","No Streams","No Streams"
5,5,0,fff6,fff7,fff7,0,ffff,ffe4,1,1,7,1,1,0,0004,0121000000090004,0009,0000,0121,0,1,0,7fff7fff001a0104,0,1,0,00000000,0,0,0,1,0,0,0,"No Streams","No Streams","No Streams"
6,6,0,fff5,fff2,fff2,0,0009,ffed,1,1,7,1,1,0,0003,01210000000e0003,000e,0000,0121,0,1,0,7fff7fff001a00f4,0,1,0,00000000,0,0,0,1,0,0,0,"No Streams","No Streams","No Streams"
7,7,0,ffff,0001,0001,0,fff4,0008,1,0,0,0,0,0,0001,01210000ffff0001,ffff,0000,0121,0,1,0,7fff7fff001a00ee,0,1,0,00000000,0,0,0,1,0,0,0,"No Streams","No Streams","No Streams"
8,8,0,0002,fffd,fffd,0,fff9,ffe6,1,0,0,0,0,0,fffd,012100000003fffd,0003,0000,0121,0,1,0,7fff7fff000200ec,0,1,0,00000000,0,0,0,0,0,1,0,"No Streams","No Streams","No Streams"
9,9,0,fff6,fffc,fffc,0,fff5,0008,1,1,7,1,1,0,0007,0121000000040007,0004,0000,0121,0,1,0,7fff7fff000e00f2,0,1,0,00000000,0,0,0,1,0,0,0,"No Streams","No Streams","No Streams"
10,10,0,fff0,fff2,fff2,0,0011,ffe9,1,1,7,1,1,0,0007,01210000000d0007,000d,0000,0121,0,1,0,7fff7fffffda00f4,0,1,0,00000000,0,0,0,1,0,0,0,"No Streams","No Streams","No Streams"
11,11,0,fffe,fff9,fff9,0,fff0,ffdc,1,1,7,1,1,0,fffe,012100000007fffe,0007,0000,0121,0,1,0,7fff7fff002c00e4,0,1,0,00000000,0,0,0,1,0,0,0,"No Streams","No Streams","No Streams"
12,12,0,fffe,fffd,fffd,0,fff9,000d,1,0,0,0,0,0,0000,0121000000030000,0003,0000,0121,0,1,0,7fff7fff002000f0,0,1,0,00000000,0,0,0,1,0,0,0,"No Streams","No Streams","No Streams"
13,13,0,fffb,fff9,fff9,0,0011,fff3,1,0,0,0,0,0,0001,0121000000070001,0007,0000,0121,0,1,0,7fff7ffffff800fa,0,1,0,00000000,0,0,0,1,0,0,0,"No Streams","No Streams","No Streams"
14,14,0,0001,ffff,ffff,0,ffe9,000e,1,1,7,1,1,0,fffe,012100000001fffe,0001,0000,0121,0,1,0,7fff7fff000c00fc,0,1,0,00000000,0,0,0,1,0,0,0,"No Streams","No Streams","No Streams"
15,15,0,fff9,fffa,fffa,0,0000,0014,1,1,7,1,1,0,0003,0121000000060003,0006,0000,0121,0,1,0,7fff7fff001000f2,0,1,0,00000000,0,0,0,1,0,0,0,"No Streams","No Streams","No Streams"
16,16,0,0000,0002,0002,0,fffc,ffe6,1,1,7,1,1,0,0001,01210000fffe0001,fffe,0000,0121,0,1,0,7fff7fff001000ea,0,1,0,00000000,0,0,0,1,0,0,0,"No Streams","No Streams","No Streams"
17,17,0,0000,0005,0005,0,0003,0013,1,0,0,0,0,0,0002,01210000fffb0002,fffb,0000,0121,0,1,0,7fff7fff000000da,0,1,0,00000000,0,0,0,0,0,1,0,"No Streams","No Streams","No Streams"
18,18,0,0001,0002,0002,0,000d,fff7,1,0,0,0,0,0,0000,01210000fffe0000,fffe,0000,0121,0,1,0,7fff7fff000800e2,0,1,0,00000000,0,0,0,1,0,0,0,"No Streams","No Streams","No Streams"
19,19,0,fffd,0006,0006,0,ffeb,0004,1,1,7,1,1,0,0005,01210000fffa0005,fffa,0000,0121,0,1,0,7fff7fff001800fa,0,1,0,00000000,0,0,0,1,0,0,0,"No Streams","No Streams","No Streams"
20,20,0,fff3,fff4,fff4,0,fffd,001c,1,1,7,1,1,0,0006,01210000000b0006,000b,0000,0121,0,1,0,7fff7fff000c00fc,0,1,0,00000000,0,0,0,1,0,0,0,"No Streams","No Streams","No Streams"
21,21,0,0001,fffe,fffe,0,fffd,ffe6,1,1,7,1,1,0,fffe,012100000002fffe,0002,0000,0121,0,1,0,7fff7fff001200f4,0,1,0,00000000,0,0,0,1,0,0,0,"No Streams","No Streams","No Streams"
22,22,0,fffd,fffa,fffa,0,ffee,0008,1,0,0,0,0,0,0000,0121000000060000,0006,0000,0121,0,1,0,7fff7fff000400fc,0,1,0,00000000,0,0,0,1,0,0,0,"No Streams","No Streams","No Streams"
23,23,0,0003,0004,0004,0,0012,fff6,1,0,0,0,0,0,ffff,01210000fffcffff,fffc,0000,0121,0,1,0,7fff7ffffffa00f0,0,1,0,00000000,0,0,0,1,0,0,0,"No Streams","No Streams","No Streams"
24,24,0,0001,fffa,fffa,0,fff5,000d,1,1,7,1,1,0,fffc,012100000006fffc,0006,0000,0121,0,1,0,7fff7fff002000e4,0,1,0,00000000,0,0,0,0,0,1,0,"No Streams","No Streams","No Streams"
25,25,0,fff7,fff8,fff8,0,fffa,0014,1,1,7,1,1,0,0004,0121000000080004,0008,0000,0121,0,1,0,7fff7fff001200e4,0,1,0,00000000,0,0,0,1,0,0,0,"No Streams","No Streams","No Streams"
26,26,0,fffd,fffa,fffa,0,0000,ffe8,1,1,7,1,1,0,0000,0121000000060000,0006,0000,0121,0,1,0,7fff7fff001a00ec,0,1,0,00000000,0,0,0,1,0,0,0,"No Streams","No Streams","No Streams"
27,27,0,fffb,fff8,fff8,0,ffea,0004,1,0,0,0,0,0,0000,0121000000080000,0008,0000,0121,0,1,0,7fff7fff001200d8,0,1,0,00000000,0,0,0,1,0,0,0,"No Streams","No Streams","No Streams"
28,28,0,0004,0001,0001,0,002a,fff8,1,0,0,0,0,0,fffd,01210000fffffffd,ffff,0000,0121,0,1,0,7fff7fff00180106,0,1,0,00000000,0,0,0,1,0,0,0,"No Streams","No Streams","No Streams"
29,29,0,0000,ffff,ffff,0,0017,fff7,1,1,7,1,1,0,ffff,012100000001ffff,0001,0000,0121,0,1,0,7fff7fff000c00e8,0,1,0,00000000,0,0,0,1,0,0,0,"No Streams","No Streams","No Streams"
30,30,0,fffd,fffb,fffb,0,ffed,000a,1,1,7,1,1,0,0000,0121000000050000,0005,0000,0121,0,1,0,7fff7fff000c00f4,0,1,0,00000000,0,0,0,1,0,0,0,"No Streams","No Streams","No Streams"
31,31,0,fffe,fffd,fffd,0,000d,ffee,1,1,7,1,1,0,0000,0121000000030000,0003,0000,0121,0,1,0,7fff7fff002000f8,0,1,0,00000000,0,0,0,1,0,0,0,"No Streams","No Streams","No Streams"
32,32,0,0004,ffff,ffff,0,ffe6,0003,1,0,0,0,0,0,fffc,012100000001fffc,0001,0000,0121,0,1,0,7fff7fff001800f0,0,1,0,00000000,0,0,0,1,0,0,0,"No Streams","No Streams","No Streams"
33,33,0,0001,0000,0000,0,0015,ffef,1,0,0,0,0,0,ffff,012100000000ffff,0000,0000,0121,0,1,0,7fff7fff001400f4,0,1,0,00000000,0,0,0,0,0,1,0,"No Streams","No Streams","No Streams"
34,34,0,0002,fffe,fffe,0,0010,fff2,1,1,7,1,1,0,fffd,012100000002fffd,0002,0000,0121,0,1,0,7fff7fff000000ee,0,1,0,00000000,0,0,0,1,0,0,0,"No Streams","No Streams","No Streams"
35,35,0,fff7,fff2,fff2,0,ffef,0004,1,1,7,1,1,0,0001,01210000000e0001,000e,0000,0121,0,1,0,7fff7fff001000e6,0,1,0,00000000,0,0,0,1,0,0,0,"No Streams","No Streams","No Streams"
36,36,0,fffe,fffe,fffe,0,000a,ffe8,1,1,7,1,1,0,0001,0121000000020001,0002,0000,0121,0,1,0,7fff7fff000e0106,0,1,0,00000000,0,0,0,1,0,0,0,"No Streams","No Streams","No Streams"
37,37,0,0000,fffb,fffb,0,fffd,0015,1,0,0,0,0,0,fffd,012100000005fffd,0005,0000,0121,0,1,0,7fff7fff001600d8,0,1,0,00000000,0,0,0,1,0,0,0,"No Streams","No Streams","No Streams"
38,38,0,fffe,ffff,ffff,0,ffed,0005,1,0,0,0,0,0,0001,0121000000010001,0001,0000,0121,0,1,0,7fff7fff001400e8,0,1,0,00000000,0,0,0,1,0,0,0,"No Streams","No Streams","No Streams"
39,39,0,0004,0006,0006,0,0016,fff5,1,1,7,1,1,0,ffff,01210000fffaffff,fffa,0000,0121,0,1,0,7fff7ffffffc00ee,0,1,0,00000000,0,0,0,1,0,0,0,"No Streams","No Streams","No Streams"
40,40,0,fff1,fff2,fff2,0,ffec,000c,1,1,7,1,1,0,0006,01210000000e0006,000e,0000,0121,0,1,0,7fff7ffffffe00ec,0,1,0,00000000,0,0,0,0,0,1,0,"No Streams","No Streams","No Streams"
41,41,0,0007,0001,0001,0,fff4,ffda,1,1,7,1,1,0,fffa,01210000fffffffa,ffff,0000,0121,0,1,0,7fff7fff002400ea,0,1,0,00000000,0,0,0,1,0,0,0,"No Streams","No Streams","No Streams"
42,42,0,fff7,fff8,fff8,0,fffc,0017,1,0,0,0,0,0,0004,0121000000080004,0008,0000,0121,0,1,0,7fff7fff000000da,0,1,0,00000000,0,0,0,1,0,0,0,"No Streams","No Streams","No Streams"
43,43,0,0004,0005,0005,0,ffe4,0002,1,0,0,0,0,0,ffff,01210000fffbffff,fffb,0000,0121,0,1,0,7fff7fff002c00ec,0,1,0,00000000,0,0,0,1,0,0,0,"No Streams","No Streams","No Streams"
44,44,0,0003,fff7,fff7,0,0011,fff1,1,1,7,1,1,0,fff9,012100000009fff9,0009,0000,0121,0,1,0,7fff7fff000c00de,0,1,0,00000000,0,0,0,1,0,0,0,"No Streams","No Streams","No Streams"
45,45,0,fff3,fff4,fff4,0,0003,000d,1,1,7,1,1,0,0006,01210000000b0006,000b,0000,0121,0,1,0,7fff7fff001000f6,0,1,0,00000000,0,0,0,1,0,0,0,"No Streams","No Streams","No Streams"
46,46,0,fffb,fff8,fff8,0,fff1,fff1,1,1,7,1,1,0,0000,0121000000080000,0008,0000,0121,0,1,0,7fff7fff000c0100,0,1,0,00000000,0,0,0,1,0,0,0,"No Streams","No Streams","No Streams"
47,47,0,0005,0002,0002,0,0020,fff3,1,0,0,0,0,0,fffc,01210000fffefffc,fffe,0000,0121,0,1,0,7fff7fff001400f6,0,1,0,00000000,0,0,0,1,0,0,0,"No Streams","No Streams","No Streams"
48,48,0,0002,fffa,fffa,0,0004,0001,1,0,0,0,0,0,fffb,012100000006fffb,0006,0000,0121,0,1,0,7fff7fff003000fc,0,1,0,00000000,0,0,0,1,0,0,0,"No Streams","No Streams","No Streams"
49,49,0,ffff,0003,0003,0,0014,fff3,1,1,7,1,1,0,0002,01210000fffd0002,fffd,0000,0121,0,1,0,7fff7fff00000104,0,1,0,00000000,0,0,0,0,0,1,0,"No Streams","No Streams","No Streams"
50,50,0,fff9,fff5,fff5,0,0004,0015,1,1,7,1,1,0,0001,01210000000a0001,000a,0000,0121,0,1,0,7fff7fff000c00e8,0,1,0,00000000,0,0,0,1,0,0,0,"No Streams","No Streams","No Streams"
51,51,0,fffe,fffe,fffe,0,ffef,fff6,1,1,7,1,1,0,0001,0121000000020001,0002,0000,0121,0,1,0,7fff7fff002a00f2,0,1,0,00000000,0,0,0,1,0,0,0,"No Streams","No Streams","No Streams"
52,52,0,fffb,fff4,fff4,0,0010,fff3,1,0,0,0,0,0,ffff,01210000000bffff,000b,0000,0121,0,1,0,7fff7fff001400d8,0,1,0,00000000,0,0,0,1,0,0,0,"No Streams","No Streams","No Streams"
53,53,0,ffff,fffd,fffd,0,0004,fff8,1,0,0,0,0,0,ffff,012100000003ffff,0003,0000,0121,0,1,0,7fff7fff001a00fc,0,1,0,00000000,0,0,0,1,0,0,0,"No Streams","No Streams","No Streams"
54,54,0,fff9,fff4,fff4,0,ffec,fff1,1,1,7,1,1,0,0000,01210000000c0000,000c,0000,0121,0,1,0,7fff7fff000400f8,0,1,0,00000000,0,0,0,1,0,0,0,"No Streams","No Streams","No Streams"
55,55,0,fffa,fffe,fffe,0,fff9,0011,1,1,7,1,1,0,0004,0121000000020004,0002,0000,0121,0,1,0,7fff7fff001200e2,0,1,0,00000000,0,0,0,1,0,0,0,"No Streams","No Streams","No Streams"
56,56,0,000b,fffc,fffc,0,ffeb,fff0,1,1,7,1,1,0,fff4,012100000004fff4,0004,0000,0121,0,1,0,7fff7fff002400e0,0,1,0,00000000,0,0,0,0,0,1,0,"No Streams","No Streams","No Streams"
57,57,0,fffc,0000,0000,0,0012,fff5,1,0,0,0,0,0,0003,0121000000000003,0000,0000,0121,0,1,0,7fff7fff000400e2,0,1,0,00000000,0,0,0,1,0,0,0,"No Streams","No Streams","No Streams"
58,58,0,0005,0002,0002,0,fffa,0014,1,0,0,0,0,0,fffd,01210000fffefffd,fffe,0000,0121,0,1,0,7fff7fff001800f2,0,1,0,00000000,0,0,0,1,0,0,0,"No Streams","No Streams","No Streams"
59,59,0,fffc,fff7,fff7,0,fff2,fff6,1,1,7,1,1,0,ffff,012100000009ffff,0009,0000,0121,0,1,0,7fff7fff001400fa,0,1,0,00000000,0,0,0,1,0,0,0,"No Streams","No Streams","No Streams"
60,60,0,fffe,fff6,fff6,0,0003,fffb,1,1,7,1,1,0,fffd,01210000000afffd,000a,0000,0121,0,1,0,7fff7fff001400dc,0,1,0,00000000,0,0,0,1,0,0,0,"No Streams","No Streams","No Streams"
61,61,0,fff6,ffea,ffea,0,fffd,000b,1,1,7,1,1,0,fffe,012100000015fffe,0015,0000,0121,0,1,0,7fff7fff000800f2,0,1,0,00000000,0,0,0,1,0,0,0,"No Streams","No Streams","No Streams"
62,62,0,0001,fffa,fffa,0,0011,0008,1,0,0,0,0,0,fffc,012100000006fffc,0006,0000,0121,0,1,0,7fff7fff000400e2,0,1,0,00000000,0,0,0,1,0,0,0,"No Streams","No Streams","No Streams"
63,63,0,fffa,fff6,fff6,0,0004,fffc,1,0,0,0,0,0,0000,01210000000a0000,000a,0000,0121,0,1,0,7fff7fff000800e0,0,1,0,00000000,0,0,0,1,0,0,0,"No Streams","No Streams","No Streams"
64,64,0,0003,fffa,fffa,0,ffde,ffe3,1,1,7,1,1,0,fffa,012100000006fffa,0006,0000,0121,0,1,0,7fff7fff000a00f4,0,1,0,00000000,0,0,0,1,0,0,0,"No Streams","No Streams","No Streams"
65,65,0,fffa,fffd,fffd,0,fffb,fffe,1,1,7,1,1,0,0004,0121000000030004,0003,0000,0121,0,1,0,7fff7fff002a00e4,0,1,0,00000000,0,0,0,0,0,1,0,"No Streams","No Streams","No Streams"
66,66,0,fff3,fffa,fffa,0,0012,000c,1,1,7,1,1,0,0008,0121000000060008,0006,0000,0121,0,1,0,7fff7fff002200ea,0,1,0,00000000,0,0,0,1,0,0,0,"No Streams","No Streams","No Streams"
67,67,0,fff9,fff8,fff8,0,fff4,fff3,1,0,0,0,0,0,0002,0121000000080002,0008,0000,0121,0,1,0,7fff7fff000600e8,0,1,0,00000000,0,0,0,1,0,0,0,"No Streams","No Streams","No Streams"
68,68,0,fffe,fff5,fff5,0,000b,0003,1,0,0,0,0,0,fffc,01210000000bfffc,000b,0000,0121,0,1,0,7fff7fff001000fc,0,1,0,00000000,0,0,0,1,0,0,0,"No Streams","No Streams","No Streams"
69,69,0,0002,fff8,fff8,0,fffc,fff9,1,1,7,1,1,0,fffa,012100000008fffa,0008,0000,0121,0,1,0,7fff7fff001800fa,0,1,0,00000000,0,0,0,1,0,0,0,"No Streams","No Streams","No Streams"
70,70,0,0006,fffe,fffe,0,ffef,ffed,1,1,7,1,1,0,fffa,012100000002fffa,0002,0000,0121,0,1,0,7fff7fff004200e8,0,1,0,00000000,0,0,0,1,0,0,0,"No Streams","No Streams","No Streams"
71,71,0,fffc,fffb,fffb,0,0013,fffc,1,1,7,1,1,0,0001,0121000000050001,0005,0000,0121,0,1,0,7fff7fff002800e0,0,1,0,00000000,0,0,0,1,0,0,0,"No Streams","No Streams","No Streams"
72,72,0,0000,0002,0002,0,ffea,fffd,1,0,0,0,0,0,0001,01210000fffe0001,fffe,0000,0121,0,1,0,7fff7fff001000d8,0,1,0,00000000,0,0,0,0,0,1,0,"No Streams","No Streams","No Streams"
73,73,0,0005,0000,0000,0,fffb,0016,1,0,0,0,0,0,fffb,012100000000fffb,0000,0000,0121,0,1,0,7fff7fff000c00f6,0,1,0,00000000,0,0,0,1,0,0,0,"No Streams","No Streams","No Streams"
74,74,0,fffa,fffb,fffb,0,0008,0000,1,1,7,1,1,0,0003,0121000000050003,0005,0000,0121,0,1,0,7fff7fff001400e2,0,1,0,00000000,0,0,0,1,0,0,0,"No Streams","No Streams","No Streams"
75,75,0,fff9,ffef,ffef,0,ffe7,ffef,1,1,7,1,1,0,fffe,012100000011fffe,0011,0000,0121,0,1,0,7fff7fff001800f6,0,1,0,00000000,0,0,0,1,0,0,0,"No Streams","No Streams","No Streams"
76,76,0,0008,0002,0002,0,0012,0005,1,1,7,1,1,0,fffa,01210000fffefffa,fffe,0000,0121,0,1,0,7fff7fff001400f0,0,1,0,00000000,0,0,0,1,0,0,0,"No Streams","No Streams","No Streams"
77,77,0,0001,fffc,fffc,0,0008,0002,1,0,0,0,0,0,fffd,012100000004fffd,0004,0000,0121,0,1,0,7fff7fffffec0102,0,1,0,00000000,0,0,0,1,0,0,0,"No Streams","No Streams","No Streams"
78,78,0,fffb,fff3,fff3,0,0007,0009,1,0,0,0,0,0,fffe,01210000000dfffe,000d,0000,0121,0,1,0,7fff7fff001600f6,0,1,0,00000000,0,0,0,1,0,0,0,"No Streams","No Streams","No Streams"
79,79,0,0000,0002,0002,0,0010,0000,1,1,7,1,1,0,0001,01210000fffe0001,fffe,0000,0121,0,1,0,7fff7fff00180102,0,1,0,00000000,0,0,0,1,0,0,0,"No Streams","No Streams","No Streams"
80,80,0,fff4,fff2,fff2,0,ffe9,fff5,1,1,7,1,1,0,0004,01210000000d0004,000d,0000,0121,0,1,0,7fff7fff001000dc,0,1,0,00000000,0,0,0,1,0,0,0,"No Streams","No Streams","No Streams"
81,81,0,0003,fff8,fff8,0,001f,fff7,1,1,7,1,1,0,fff9,012100000008fff9,0008,0000,0121,0,1,0,7fff7fff001e00fa,0,1,0,00000000,0,0,0,0,0,1,0,"No Streams","No Streams","No Streams"
82,82,0,ffff,fffe,fffe,0,0010,0016,1,0,0,0,0,0,0000,0121000000020000,0002,0000,0121,0,1,0,7fff7fff000000f0,0,1,0,00000000,0,0,0,1,0,0,0,"No Streams","No Streams","No Streams"
83,83,0,0003,fffd,fffd,0,fff6,fff7,1,0,0,0,0,0,fffc,012100000003fffc,0003,0000,0121,0,1,0,7fff7fff000400fa,0,1,0,00000000,0,0,0,1,0,0,0,"No Streams","No Streams","No Streams"
84,84,0,0006,0006,0006,0,0016,fff3,1,1,7,1,1,0,fffe,01210000fffafffe,fffa,0000,0121,0,1,0,7fff7fff002600ee,0,1,0,00000000,0,0,0,1,0,0,0,"No Streams","No Streams","No Streams"
85,85,0,0001,ffff,ffff,0,fff0,000e,1,1,7,1,1,0,fffe,012100000001fffe,0001,0000,0121,0,1,0,7fff7fff003000ec,0,1,0,00000000,0,0,0,1,0,0,0,"No Streams","No Streams","No Streams"
86,86,0,fffc,fff8,fff8,0,ffee,fff4,1,1,7,1,1,0,0000,0121000000070000,0007,0000,0121,0,1,0,7fff7fff001c00f8,0,1,0,00000000,0,0,0,1,0,0,0,"No Streams","No Streams","No Streams"
87,87,0,fffe,0000,0000,0,000c,0004,1,0,0,0,0,0,0002,01210000ffff0002,ffff,0000,0121,0,1,0,7fff7fff000800d0,0,1,0,00000000,0,0,0,1,0,0,0,"No Streams","No Streams","No Streams"
88,88,0,0006,ffff,ffff,0,0003,0002,1,0,0,0,0,0,fffa,012100000001fffa,0001,0000,0121,0,1,0,7fff7fff000c00e8,0,1,0,00000000,0,0,0,0,0,1,0,"No Streams","No Streams","No Streams"
89,89,0,fffb,fff9,fff9,0,0000,ffe8,1,1,7,1,1,0,0001,0121000000070001,0007,0000,0121,0,1,0,7fff7fff002000d6,0,1,0,00000000,0,0,0,1,0,0,0,"No Streams","No Streams","No Streams"
90,90,0,fffa,0001,0001,0,fff0,0008,1,1,7,1,1,0,0006,01210000fffe0006,fffe,0000,0121,0,1,0,7fff7ffffff800f0,0,1,0,00000000,0,0,0,1,0,0,0,"No Streams","No Streams","No Streams"
91,91,0,fff9,fffa,fffa,0,fffb,0002,1,1,7,1,1,0,0003,0121000000060003,0006,0000,0121,0,1,0,7fff7fff001400ce,0,1,0,00000000,0,0,0,1,0,0,0,"No Streams","No Streams","No Streams"
92,92,0,ffff,fff7,fff7,0,0014,0004,1,0,0,0,0,0,fffc,012100000009fffc,0009,0000,0121,0,1,0,7fff7fff005000f0,0,1,0,00000000,0,0,0,1,0,0,0,"No Streams","No Streams","No Streams"
93,93,0,0007,fffe,fffe,0,ffed,0002,1,0,0,0,0,0,fff9,012100000002fff9,0002,0000,0121,0,1,0,7fff7fff002c00f6,0,1,0,00000000,0,0,0,1,0,0,0,"No Streams","No Streams","No Streams"
94,94,0,0002,fff8,fff8,0,ffff,ffe4,1,1,7,1,1,0,fffa,012100000008fffa,0008,0000,0121,0,1,0,7fff7fff00080102,0,1,0,00000000,0,0,0,1,0,0,0,"No Streams","No Streams","No Streams"
95,95,0,fff7,fffe,fffe,0,001b,0011,1,1,7,1,1,0,0007,0121000000010007,0001,0000,0121,0,1,0,7fff7fff000800de,0,1,0,00000000,0,0,0,1,0,0,0,"No Streams","No Streams","No Streams"
96,96,0,0000,0003,0003,0,0001,0003,1,1,7,1,1,0,0001,01210000fffd0001,fffd,0000,0121,0,1,0,7fff7fff000a00f6,0,1,0,00000000,0,0,0,1,0,0,0,"No Streams","No Streams","No Streams"
97,97,0,0000,ffff,ffff,0,0017,0011,1,0,0,0,0,0,ffff,012100000001ffff,0001,0000,0121,0,1,0,7fff7fff001600f0,0,1,0,00000000,0,0,0,0,0,1,0,"No Streams","No Streams","No Streams"
98,98,0,0005,0005,0005,0,fff5,000c,1,0,0,0,0,0,fffe,01210000fffbfffe,fffb,0000,0121,0,1,0,7fff7fff002c0102,0,1,0,00000000,0,0,0,1,0,0,0,"No Streams","No Streams","No Streams"
99,99,0,0003,0006,0006,0,fffc,ffe7,1,1,7,1,1,0,0000,01210000fffa0000,fffa,0000,0121,0,1,0,7fff7fff001c00f4,0,1,0,00000000,0,0,0,1,0,0,0,"No Streams","No Streams","No Streams"
100,100,0,fff9,fffa,fffa,0,0016,0012,1,1,7,1,1,0,0003,0121000000060003,0006,0000,0121,0,1,0,7fff7fff001e00ea,0,1,0,00000000,0,0,0,1,0,0,0,"No Streams","No Streams","No Streams"
101,101,0,0009,0001,0001,0,ffff,fff7,1,1,7,1,1,0,fff8,01210000fffffff8,ffff,0000,0121,0,1,0,7fff7fff000800e0,0,1,0,00000000,0,0,0,1,0,0,0,"No Streams","No Streams","No Streams"
102,102,0,0005,fffa,fffa,0,000a,ffec,1,0,0,0,0,0,fff9,012100000006fff9,0006,0000,0121,0,1,0,7fff7fff00000100,0,1,0,00000000,0,0,0,1,0,0,0,"No Streams","No Streams","No Streams"
103,103,0,fffe,fff2,fff2,0,fff2,000c,1,0,0,0,0,0,fffb,01210000000efffb,000e,0000,0121,0,1,0,7fff7fff000400fe,0,1,0,00000000,0,0,0,1,0,0,0,"No Streams","No Streams","No Streams"
104,104,0,fffd,fff9,fff9,0,fffb,ffe8,1,1,7,1,1,0,ffff,012100000007ffff,0007,0000,0121,0,1,0,7fff7fff002c00e0,0,1,0,00000000,0,0,0,0,0,1,0,"No Streams","No Streams","No Streams"
105,105,0,0002,fffa,fffa,0,0013,000c,1,1,7,1,1,0,fffb,012100000006fffb,0006,0000,0121,0,1,0,7fff7fff002000f0,0,1,0,00000000,0,0,0,1,0,0,0,"No Streams","No Streams","No Streams"
