Sample in Buffer,Sample in Window,TRIGGER,zsys_i/system_ila_0/U0/probe0_1[15:0],user_probe_0[15:0],zsys_i/system_ila_0/U0/probe1_1[15:0],zsys_i/system_ila_0/U0/probe2_1,zsys_i/system_ila_0/U0/probe3_1[15:0],zsys_i/system_ila_0/U0/probe4_1[15:0],zsys_i/system_ila_0/U0/probe5_1,GL0,zsys_i/system_ila_0/U0/probe6_1[2:0],GL1,GL2,zsys_i/system_ila_0/U0/probe7_1,Monitor1[15:0],zsys_i/system_ila_0/U0/net_slot_0_axis_tdata[63:0],Monitor2[15:0],Monitor3[15:0],Monitor4[15:0],zsys_i/system_ila_0/U0/net_slot_0_axis_tvalid,zsys_i/system_ila_0/U0/net_slot_0_axis_tready,zsys_i/system_ila_0/U0/net_slot_0_axis_tlast,zsys_i/system_ila_0/U0/net_slot_1_axis_tdata[63:0],zsys_i/system_ila_0/U0/net_slot_1_axis_tvalid,zsys_i/system_ila_0/U0/net_slot_1_axis_tready,zsys_i/system_ila_0/U0/net_slot_1_axis_tlast,zsys_i/system_ila_0/U0/net_slot_2_axis_tdata[31:0],zsys_i/system_ila_0/U0/net_slot_2_axis_tvalid,zsys_i/system_ila_0/U0/net_slot_2_axis_tready,zsys_i/system_ila_0/U0/net_slot_2_axis_tlast,zsys_i/system_ila_0/U0/SLOT_3_ACC_HANDSHAKE_start_1,zsys_i/system_ila_0/U0/SLOT_3_ACC_HANDSHAKE_done_1,zsys_i/system_ila_0/U0/SLOT_3_ACC_HANDSHAKE_idle_1,zsys_i/system_ila_0/U0/SLOT_3_ACC_HANDSHAKE_ready_1,T_Channel_(i1:s0)_(axis_monitor_0_m_axis)[2:0],T_Channel_(i1:s1)_(axis_AD7403_0_m_axis)[2:0],T_Channel_(i1:s2)_()[2:0]
0,0,1,feb8,fe86,fe86,0,feec,fec6,0,0,0,0,0,0,fff9,0328ff0101b5fff9,01b5,ff01,0328,0,1,0,7fff7fff01b400f6,0,1,0,00000000,0,0,0,1,0,0,0,"No Streams","No Streams","No Streams"
1,1,0,feb9,fe8c,fe8c,0,fed8,fed5,1,0,0,0,0,0,fffc,0328ff0101aefffc,01ae,ff01,0328,0,1,0,7fff7fff01aa00ee,0,1,0,00000000,0,0,0,1,0,0,0,"No Streams","No Streams","No Streams"
2,2,0,fec4,fe9d,fe9d,0,fee5,fece,1,0,2,1,0,0,ffff,0328ff01019cffff,019c,ff01,0328,0,1,0,7fff7fff01aa00ec,0,1,0,00000000,0,0,0,1,0,0,0,"No Streams","No Streams","No Streams"
3,3,0,fecc,fe9c,fe9c,0,ff07,fecf,1,1,3,1,0,0,fff9,0328ff01019bfff9,019b,ff01,0328,0,1,0,7fff7fff01b800f0,0,1,0,00000000,0,0,0,1,0,0,0,"No Streams","No Streams","No Streams"
4,4,0,fed3,fe86,fe86,0,fef8,fee6,1,1,7,1,1,0,ffe5,0328ff0101afffe5,01af,ff01,0328,0,1,0,7fff7fff01be00e0,0,1,0,00000000,0,0,0,1,0,0,0,"No Streams","No Streams","No Streams"
5,5,0,fec0,fe86,fe86,0,fefd,fecb,1,1,7,1,1,0,fff3,0328ff0101b3fff3,01b3,ff01,0328,0,1,0,7fff7fff01c800e6,0,1,0,00000000,0,0,0,1,0,0,0,"No Streams","No Streams","No Streams"
6,6,0,feca,fe92,fe92,0,fed5,fedb,1,0,0,0,0,0,fff3,0328ff0101a6fff3,01a6,ff01,0328,0,1,0,7fff7fff01a600ec,0,1,0,00000000,0,0,0,0,0,1,0,"No Streams","No Streams","No Streams"
7,7,0,fec3,fe99,fe99,0,feef,fed3,1,0,2,1,0,0,fffd,0328ff0101a0fffd,01a0,ff01,0328,0,1,0,7fff7fff01ae00de,0,1,0,00000000,0,0,0,1,0,0,0,"No Streams","No Streams","No Streams"
8,8,0,fed6,fe9e,fe9e,0,fefe,fed0,1,1,3,1,0,0,fff3,0328ff010197fff3,0197,ff01,0328,0,1,0,7fff7fff01a000fa,0,1,0,00000000,0,0,0,1,0,0,0,"No Streams","No Streams","No Streams"
9,9,0,fecd,fe80,fe80,0,ff01,fee0,1,1,7,1,1,0,ffe5,0328ff0101b6ffe5,01b6,ff01,0328,0,1,0,7fff7fff01d000da,0,1,0,00000000,0,0,0,1,0,0,0,"No Streams","No Streams","No Streams"
10,10,0,fec8,fe8a,fe8a,0,fee3,fece,1,1,7,1,1,0,fff0,0328ff0101adfff0,01ad,ff01,0328,0,1,0,7fff7fff01be00e4,0,1,0,00000000,0,0,0,1,0,0,0,"No Streams","No Streams","No Streams"
11,11,0,fec1,fe93,fe93,0,fef3,fecb,1,0,0,0,0,0,fff5,0329ff0101a9fff5,01a9,ff01,0329,0,1,0,7fff7fff01a400e6,0,1,0,00000000,0,0,0,1,0,0,0,"No Streams","No Streams","No Streams"
12,12,0,fec6,fe9c,fe9c,0,fef2,feda,1,0,2,1,0,0,fff7,0329ff01019ffff7,019f,ff01,0329,0,1,0,7fff7fff019600ee,0,1,0,00000000,0,0,0,1,0,0,0,"No Streams","No Streams","No Streams"
13,13,0,fed5,fea6,fea6,0,fefb,feea,1,1,3,1,0,0,fff3,0329ff020192fff3,0192,ff02,0329,0,1,0,7fff7fff01d000ec,0,1,0,00000000,0,0,0,0,0,1,0,"No Streams","No Streams","No Streams"
14,14,0,fed2,fe8e,fe8e,0,ff15,fed8,1,1,7,1,1,0,ffe5,0329ff0201aaffe5,01aa,ff02,0329,0,1,0,7fff7fff01c400da,0,1,0,00000000,0,0,0,1,0,0,0,"No Streams","No Streams","No Streams"
15,15,0,febb,fe8c,fe8c,0,fef9,fec8,1,1,7,1,1,0,fff4,0329ff0301b1fff4,01b1,ff03,0329,0,1,0,7fff7fff01c600d8,0,1,0,00000000,0,0,0,1,0,0,0,"No Streams","No Streams","No Streams"
16,16,0,febf,fe97,fe97,0,fed6,fedd,1,0,0,0,0,0,fff9,0329ff0401a5fff9,01a5,ff04,0329,0,1,0,7fff7fff01c600d8,0,1,0,00000000,0,0,0,1,0,0,0,"No Streams","No Streams","No Streams"
17,17,0,fec5,fe9a,fe9a,0,fef0,fed1,1,0,2,1,0,0,fff7,0329ff0401a1fff7,01a1,ff04,0329,0,1,0,7fff7fff01bc00e4,0,1,0,00000000,0,0,0,1,0,0,0,"No Streams","No Streams","No Streams"
18,18,0,fed5,fea2,fea2,0,fef1,fedb,1,1,3,1,0,0,fff0,0329ff040196fff0,0196,ff04,0329,0,1,0,7fff7fff01c000e0,0,1,0,00000000,0,0,0,1,0,0,0,"No Streams","No Streams","No Streams"
19,19,0,fec7,fe89,fe89,0,fef3,fed6,1,1,7,1,1,0,ffea,0329ff0401b1ffea,01b1,ff04,0329,0,1,0,7fff7fff01da00d4,0,1,0,00000000,0,0,0,1,0,0,0,"No Streams","No Streams","No Streams"
20,20,0,febe,fe81,fe81,0,fefc,fecf,1,1,7,1,1,0,ffeb,0329ff0401bbffeb,01bb,ff04,0329,0,1,0,7fff7fff01d000e0,0,1,0,00000000,0,0,0,1,0,0,0,"No Streams","No Streams","No Streams"
21,21,0,fec3,fe8d,fe8d,0,fed6,fed1,1,0,0,0,0,0,ffef,0329ff0401afffef,01af,ff04,0329,0,1,0,7fff7fff01a800f6,0,1,0,00000000,0,0,0,1,0,0,0,"No Streams","No Streams","No Streams"
22,22,0,fecf,fea1,fea1,0,fef5,feda,1,0,2,1,0,0,fff4,0329ff040198fff4,0198,ff04,0329,0,1,0,7fff7fff01ac00ee,0,1,0,00000000,0,0,0,0,0,1,0,"No Streams","No Streams","No Streams"
23,23,0,fed0,fea0,fea0,0,fef6,fee1,1,1,3,1,0,0,fff2,0329ff040199fff2,0199,ff04,0329,0,1,0,7fff7fff01bc00f6,0,1,0,00000000,0,0,0,1,0,0,0,"No Streams","No Streams","No Streams"
24,24,0,fed0,fe90,fe90,0,feea,fed6,1,1,7,1,1,0,ffe7,0329ff0401a9ffe7,01a9,ff04,0329,0,1,0,7fff7fff01c600ea,0,1,0,00000000,0,0,0,1,0,0,0,"No Streams","No Streams","No Streams"
25,25,0,febb,fe88,fe88,0,fefc,fed0,1,1,7,1,1,0,fff2,0329ff0401b5fff2,01b5,ff04,0329,0,1,0,7fff7fff01cc0106,0,1,0,00000000,0,0,0,1,0,0,0,"No Streams","No Streams","No Streams"
26,26,0,fec2,fe92,fe92,0,fecc,feda,1,0,0,0,0,0,fff3,0329ff0401aafff3,01aa,ff04,0329,0,1,0,7fff7fff01ca00f4,0,1,0,00000000,0,0,0,1,0,0,0,"No Streams","No Streams","No Streams"
27,27,0,fed3,fe9f,fe9f,0,feee,fed4,1,0,2,1,0,0,ffef,0329ff04019affef,019a,ff04,0329,0,1,0,7fff7fff01b400ee,0,1,0,00000000,0,0,0,1,0,0,0,"No Streams","No Streams","No Streams"
28,28,0,fecd,fe9f,fe9f,0,fefd,fee0,1,1,3,1,0,0,fff4,0329ff04019bfff4,019b,ff04,0329,0,1,0,7fff7fff01ba00d8,0,1,0,00000000,0,0,0,1,0,0,0,"No Streams","No Streams","No Streams"
29,29,0,fecd,fe89,fe89,0,fef8,fed3,1,1,7,1,1,0,ffe5,0329ff0401b0ffe5,01b0,ff04,0329,0,1,0,7fff7fff01e000cc,0,1,0,00000000,0,0,0,0,0,1,0,"No Streams","No Streams","No Streams"
30,30,0,fec7,fe8c,fe8c,0,fef9,fecd,1,1,7,1,1,0,ffeb,0329ff0401afffeb,01af,ff04,0329,0,1,0,7fff7fff01c800d6,0,1,0,00000000,0,0,0,1,0,0,0,"No Streams","No Streams","No Streams"
31,31,0,fec9,fe99,fe99,0,fed6,fed5,1,0,0,0,0,0,fff3,0329ff0401a1fff3,01a1,ff04,0329,0,1,0,7fff7fff01da00e2,0,1,0,00000000,0,0,0,1,0,0,0,"No Streams","No Streams","No Streams"
32,32,0,fecf,fea1,fea1,0,fef5,fedb,1,0,2,1,0,0,fff4,0329ff040198fff4,0198,ff04,0329,0,1,0,7fff7fff01b800d4,0,1,0,00000000,0,0,0,1,0,0,0,"No Streams","No Streams","No Streams"
33,33,0,fedc,fea7,fea7,0,fefc,fee0,1,1,3,1,0,0,ffee,0329ff040190ffee,0190,ff04,0329,0,1,0,7fff7fff01c000c8,0,1,0,00000000,0,0,0,1,0,0,0,"No Streams","No Streams","No Streams"
34,34,0,fecc,fe8c,fe8c,0,fef7,fef5,1,1,7,1,1,0,ffe8,0329ff0401aeffe8,01ae,ff04,0329,0,1,0,7fff7fff01c800da,0,1,0,00000000,0,0,0,1,0,0,0,"No Streams","No Streams","No Streams"
35,35,0,feb8,fe89,fe89,0,fefa,fec9,1,1,7,1,1,0,ffee,032aff0401b8ffee,01b8,ff04,032a,0,1,0,7fff7fff01ba00f0,0,1,0,00000000,0,0,0,1,0,0,0,"No Streams","No Streams","No Streams"
36,36,0,fec5,fe90,fe90,0,feda,fec7,1,0,0,0,0,0,ffea,032aff0401aeffea,01ae,ff04,032a,0,1,0,7fff7fff01ac00de,0,1,0,00000000,0,0,0,1,0,0,0,"No Streams","No Streams","No Streams"
37,37,0,feca,fe9d,fe9d,0,fef7,fed6,1,0,2,1,0,0,ffef,032aff0401a0ffef,01a0,ff04,032a,0,1,0,7fff7fff01b000de,0,1,0,00000000,0,0,0,1,0,0,0,"No Streams","No Streams","No Streams"
38,38,0,fecd,fea9,fea9,0,ff00,feeb,1,1,3,1,0,0,fff5,032aff050194fff5,0194,ff05,032a,0,1,0,7fff7fff01c000de,0,1,0,00000000,0,0,0,0,0,1,0,"No Streams","No Streams","No Streams"
39,39,0,fece,fe8c,fe8c,0,fef0,fef8,1,1,7,1,1,0,ffe0,032aff0501b0ffe0,01b0,ff05,032a,0,1,0,7fff7fff01c800ea,0,1,0,00000000,0,0,0,1,0,0,0,"No Streams","No Streams","No Streams"
40,40,0,feb6,fe88,fe88,0,feec,feca,1,1,7,1,1,0,ffef,032aff0601b9ffef,01b9,ff06,032a,0,1,0,7fff7fff01e000e0,0,1,0,00000000,0,0,0,1,0,0,0,"No Streams","No Streams","No Streams"
41,41,0,febc,fe97,fe97,0,fee2,fec8,1,0,0,0,0,0,fff5,032aff0601a9fff5,01a9,ff06,032a,0,1,0,7fff7fff01a000d4,0,1,0,00000000,0,0,0,1,0,0,0,"No Streams","No Streams","No Streams"
42,42,0,fec9,fea4,fea4,0,fefd,fede,1,0,2,1,0,0,fff4,032aff06019afff4,019a,ff06,032a,0,1,0,7fff7fff01a200ec,0,1,0,00000000,0,0,0,1,0,0,0,"No Streams","No Streams","No Streams"
43,43,0,fed7,fea4,fea4,0,fef6,fee4,1,1,3,1,0,0,ffea,032aff060196ffea,0196,ff06,032a,0,1,0,7fff7fff01bc00e8,0,1,0,00000000,0,0,0,1,0,0,0,"No Streams","No Streams","No Streams"
44,44,0,fec1,fe88,fe88,0,fef0,fef0,1,1,7,1,1,0,ffe7,032aff0601b7ffe7,01b7,ff06,032a,0,1,0,7fff7fff01d600ca,0,1,0,00000000,0,0,0,1,0,0,0,"No Streams","No Streams","No Streams"
45,45,0,febb,fe85,fe85,0,feea,fec6,1,1,7,1,1,0,ffea,032aff0601bbffea,01bb,ff06,032a,0,1,0,7fff7fff01ba00dc,0,1,0,00000000,0,0,0,0,0,1,0,"No Streams","No Streams","No Streams"
46,46,0,fec3,fe99,fe99,0,fee6,fecb,1,0,0,0,0,0,fff1,032aff0601a6fff1,01a6,ff06,032a,0,1,0,7fff7fff01a400d4,0,1,0,00000000,0,0,0,1,0,0,0,"No Streams","No Streams","No Streams"
47,47,0,fecb,fea4,fea4,0,feff,feee,1,0,2,1,0,0,fff3,032aff060199fff3,0199,ff06,032a,0,1,0,7fff7fff01b000f8,0,1,0,00000000,0,0,0,1,0,0,0,"No Streams","No Streams","No Streams"
48,48,0,feca,fea9,fea9,0,fef8,fee4,1,1,3,1,0,0,fff7,032aff060195fff7,0195,ff06,032a,0,1,0,7fff7fff01b800d0,0,1,0,00000000,0,0,0,1,0,0,0,"No Streams","No Streams","No Streams"
49,49,0,fece,fe94,fe94,0,feed,feee,1,1,7,1,1,0,ffe6,032aff0601a8ffe6,01a8,ff06,032a,0,1,0,7fff7fff01de00ec,0,1,0,00000000,0,0,0,1,0,0,0,"No Streams","No Streams","No Streams"
50,50,0,febc,fe7e,fe7e,0,fef9,fed3,1,1,7,1,1,0,ffe4,032aff0601c2ffe4,01c2,ff06,032a,0,1,0,7fff7fff01a800ec,0,1,0,00000000,0,0,0,1,0,0,0,"No Streams","No Streams","No Streams"
51,51,0,fec3,fe99,fe99,0,feed,fed1,1,0,0,0,0,0,fff1,032aff0601a6fff1,01a6,ff06,032a,0,1,0,7fff7fff01ca00d4,0,1,0,00000000,0,0,0,1,0,0,0,"No Streams","No Streams","No Streams"
52,52,0,fec6,fe9f,fe9f,0,fed9,fee5,1,0,2,1,0,0,fff3,032aff0601a0fff3,01a0,ff06,032a,0,1,0,7fff7fff01c200d4,0,1,0,00000000,0,0,0,1,0,0,0,"No Streams","No Streams","No Streams"
53,53,0,fed1,fea3,fea3,0,fef7,feda,1,1,3,1,0,0,ffee,032aff060199ffee,0199,ff06,032a,0,1,0,7fff7fff01b800dc,0,1,0,00000000,0,0,0,1,0,0,0,"No Streams","No Streams","No Streams"
54,54,0,fecf,fe8e,fe8e,0,fef3,feed,1,1,7,1,1,0,ffe1,032aff0601aeffe1,01ae,ff06,032a,0,1,0,7fff7fff01dc00dc,0,1,0,00000000,0,0,0,0,0,1,0,"No Streams","No Streams","No Streams"
55,55,0,feb0,fe89,fe89,0,fef3,feca,1,1,7,1,1,0,fff4,032aff0601bafff4,01ba,ff06,032a,0,1,0,7fff7fff01c200d2,0,1,0,00000000,0,0,0,1,0,0,0,"No Streams","No Streams","No Streams"
56,56,0,febb,fe8c,fe8c,0,fee5,fecc,1,0,0,0,0,0,ffee,032aff0601b4ffee,01b4,ff06,032a,0,1,0,7fff7fff01ac00e6,0,1,0,00000000,0,0,0,1,0,0,0,"No Streams","No Streams","No Streams"
57,57,0,fec0,fe9a,fe9a,0,fed9,fedd,1,0,2,1,0,0,fff4,032aff0601a5fff4,01a5,ff06,032a,0,1,0,7fff7fff018e00d6,0,1,0,00000000,0,0,0,1,0,0,0,"No Streams","No Streams","No Streams"
58,58,0,feda,fea7,fea7,0,fefe,fee6,1,1,3,1,0,0,ffea,032aff060193ffea,0193,ff06,032a,0,1,0,7fff7fff01c800dc,0,1,0,00000000,0,0,0,1,0,0,0,"No Streams","No Streams","No Streams"
59,59,0,fec7,fe94,fe94,0,ff07,fee6,1,1,7,1,1,0,ffe5,032bff0601adffe5,01ad,ff06,032b,0,1,0,7fff7fff01d600d8,0,1,0,00000000,0,0,0,1,0,0,0,"No Streams","No Streams","No Streams"
60,60,0,feb3,fe88,fe88,0,feeb,fece,1,1,7,1,1,0,ffeb,032bff0601bdffeb,01bd,ff06,032b,0,1,0,7fff7fff01d000e0,0,1,0,00000000,0,0,0,1,0,0,0,"No Streams","No Streams","No Streams"
61,61,0,febe,fe94,fe94,0,fee8,fed1,1,0,0,0,0,0,ffeb,032bff0601afffeb,01af,ff06,032b,0,1,0,7fff7fff01b600e8,0,1,0,00000000,0,0,0,0,0,1,0,"No Streams","No Streams","No Streams"
62,62,0,fecd,fea6,fea6,0,fee3,fee7,1,0,2,1,0,0,ffed,032bff07019affed,019a,ff07,032b,0,1,0,7fff7fff01c000ce,0,1,0,00000000,0,0,0,1,0,0,0,"No Streams","No Streams","No Streams"
63,63,0,fed6,feae,feae,0,fef6,fee9,1,1,3,1,0,0,ffec,032bff070190ffec,0190,ff07,032b,0,1,0,7fff7fff01a800ee,0,1,0,00000000,0,0,0,1,0,0,0,"No Streams","No Streams","No Streams"
64,64,0,fec9,fe8d,fe8d,0,ff04,feed,1,1,7,1,1,0,ffdf,032bff0801b2ffdf,01b2,ff08,032b,0,1,0,7fff7fff01d400da,0,1,0,00000000,0,0,0,1,0,0,0,"No Streams","No Streams","No Streams"
65,65,0,feb0,fe8b,fe8b,0,fedd,fed7,1,1,7,1,1,0,ffef,032bff0801bbffef,01bb,ff08,032b,0,1,0,7fff7fff01d000d8,0,1,0,00000000,0,0,0,1,0,0,0,"No Streams","No Streams","No Streams"
66,66,0,feaf,fe95,fe95,0,fece,fed9,1,0,0,0,0,0,fff7,032bff0801b1fff7,01b1,ff08,032b,0,1,0,7fff7fff019400ee,0,1,0,00000000,0,0,0,1,0,0,0,"No Streams","No Streams","No Streams"
67,67,0,fec9,fea2,fea2,0,feeb,fedc,1,0,2,1,0,0,ffed,032bff08019effed,019e,ff08,032b,0,1,0,7fff7fff01ac00e8,0,1,0,00000000,0,0,0,1,0,0,0,"No Streams","No Streams","No Streams"
68,68,0,fed4,feaa,feaa,0,fef0,fedf,1,1,3,1,0,0,ffeb,032bff080194ffeb,0194,ff08,032b,0,1,0,7fff7fff01be00de,0,1,0,00000000,0,0,0,1,0,0,0,"No Streams","No Streams","No Streams"
69,69,0,fed0,fe99,fe99,0,fefd,fee4,1,1,7,1,1,0,ffe2,032bff0801a6ffe2,01a6,ff08,032b,0,1,0,7fff7fff01ca00ce,0,1,0,00000000,0,0,0,1,0,0,0,"No Streams","No Streams","No Streams"
70,70,0,febe,fe8f,fe8f,0,fef5,feca,1,1,7,1,1,0,ffe8,032bff0801b4ffe8,01b4,ff08,032b,0,1,0,7fff7fff01b000f0,0,1,0,00000000,0,0,0,0,0,1,0,"No Streams","No Streams","No Streams"
71,71,0,febb,fe95,fe95,0,fed9,fede,1,0,0,0,0,0,ffee,032bff0801aeffee,01ae,ff08,032b,0,1,0,7fff7fff019e00e0,0,1,0,00000000,0,0,0,1,0,0,0,"No Streams","No Streams","No Streams"
72,72,0,fec5,fea5,fea5,0,fef9,feda,1,0,2,1,0,0,fff2,032bff08019dfff2,019d,ff08,032b,0,1,0,7fff7fff01b000bc,0,1,0,00000000,0,0,0,1,0,0,0,"No Streams","No Streams","No Streams"
73,73,0,fed7,feaa,feaa,0,fef3,fee5,1,1,3,1,0,0,ffe9,032bff080193ffe9,0193,ff08,032b,0,1,0,7fff7fff01ca00e4,0,1,0,00000000,0,0,0,1,0,0,0,"No Streams","No Streams","No Streams"
74,74,0,fec7,fe92,fe92,0,fef8,fedf,1,1,7,1,1,0,ffe3,032bff0801afffe3,01af,ff08,032b,0,1,0,7fff7fff01d000d6,0,1,0,00000000,0,0,0,1,0,0,0,"No Streams","No Streams","No Streams"
75,75,0,feb4,fe86,fe86,0,fef4,fed0,1,1,7,1,1,0,ffe9,032bff0801bfffe9,01bf,ff08,032b,0,1,0,7fff7fff01ba00e4,0,1,0,00000000,0,0,0,1,0,0,0,"No Streams","No Streams","No Streams"
76,76,0,febe,fe8d,fe8d,0,fed2,fedc,1,0,0,0,0,0,ffe6,032bff0801b6ffe6,01b6,ff08,032b,0,1,0,7fff7fff01a000dc,0,1,0,00000000,0,0,0,1,0,0,0,"No Streams","No Streams","No Streams"
77,77,0,feca,fea6,fea6,0,ff00,fee0,1,0,2,1,0,0,ffef,032bff08019bffef,019b,ff08,032b,0,1,0,7fff7fff018800ea,0,1,0,00000000,0,0,0,0,0,1,0,"No Streams","No Streams","No Streams"
78,78,0,fecf,fea1,fea1,0,fefc,fee5,1,1,3,1,0,0,ffe8,032bff08019effe8,019e,ff08,032b,0,1,0,7fff7fff01c600e4,0,1,0,00000000,0,0,0,1,0,0,0,"No Streams","No Streams","No Streams"
79,79,0,fec9,fe8f,fe8f,0,fef9,fedc,1,1,7,1,1,0,ffe0,032bff0801b1ffe0,01b1,ff08,032b,0,1,0,7fff7fff01ce00d0,0,1,0,00000000,0,0,0,1,0,0,0,"No Streams","No Streams","No Streams"
80,80,0,feb5,fe89,fe89,0,fef6,fecd,1,1,7,1,1,0,ffea,032bff0801bcffea,01bc,ff08,032b,0,1,0,7fff7fff01cc00d8,0,1,0,00000000,0,0,0,1,0,0,0,"No Streams","No Streams","No Streams"
81,81,0,fec2,fe97,fe97,0,fed1,fed7,1,0,0,0,0,0,ffeb,032bff0801abffeb,01ab,ff08,032b,0,1,0,7fff7fff01b200cc,0,1,0,00000000,0,0,0,1,0,0,0,"No Streams","No Streams","No Streams"
82,82,0,fec9,fe9a,fe9a,0,fef0,fed8,1,0,2,1,0,0,ffe8,032bff0801a6ffe8,01a6,ff08,032b,0,1,0,7fff7fff01a600e8,0,1,0,00000000,0,0,0,1,0,0,0,"No Streams","No Streams","No Streams"
83,83,0,fecf,fe9b,fe9b,0,fef5,fee0,1,1,3,1,0,0,ffe4,032bff0801a4ffe4,01a4,ff08,032b,0,1,0,7fff7fff01ce00e0,0,1,0,00000000,0,0,0,1,0,0,0,"No Streams","No Streams","No Streams"
84,84,0,feb3,fe82,fe82,0,fee7,feed,1,1,7,1,1,0,ffe1,032cff0801c5ffe1,01c5,ff08,032c,0,1,0,7fff7fff01d200c0,0,1,0,00000000,0,0,0,1,0,0,0,"No Streams","No Streams","No Streams"
85,85,0,feb9,fe86,fe86,0,fee7,fec0,1,1,7,1,1,0,ffdf,032cff0801c0ffdf,01c0,ff08,032c,0,1,0,7fff7fff01c000e4,0,1,0,00000000,0,0,0,1,0,0,0,"No Streams","No Streams","No Streams"
86,86,0,feb3,fe93,fe93,0,fed1,fedf,1,0,0,0,0,0,ffec,032cff0901b5ffec,01b5,ff09,032c,0,1,0,7fff7fff01a800e0,0,1,0,00000000,0,0,0,0,0,1,0,"No Streams","No Streams","No Streams"
87,87,0,fecd,fea3,fea3,0,fee1,fed4,1,0,2,1,0,0,ffe5,032cff0a019fffe5,019f,ff0a,032c,0,1,0,7fff7fff01aa00cc,0,1,0,00000000,0,0,0,1,0,0,0,"No Streams","No Streams","No Streams"
88,88,0,fec8,fea9,fea9,0,ff00,fee6,1,1,3,1,0,0,ffed,032cff0a019affed,019a,ff0a,032c,0,1,0,7fff7fff01b400d0,0,1,0,00000000,0,0,0,1,0,0,0,"No Streams","No Streams","No Streams"
89,89,0,fec2,fe8a,fe8a,0,fee6,fef7,1,1,7,1,1,0,ffdb,032cff0b01baffdb,01ba,ff0b,032c,0,1,0,7fff7fff01c400dc,0,1,0,00000000,0,0,0,1,0,0,0,"No Streams","No Streams","No Streams"
90,90,0,febc,fe8c,fe8c,0,fee9,fec5,1,1,7,1,1,0,ffe1,032cff0b01baffe1,01ba,ff0b,032c,0,1,0,7fff7fff01ce00de,0,1,0,00000000,0,0,0,1,0,0,0,"No Streams","No Streams","No Streams"
91,91,0,feb6,fe94,fe94,0,feea,fecb,1,0,0,0,0,0,ffeb,032cff0b01b3ffeb,01b3,ff0b,032c,0,1,0,7fff7fff01a800d4,0,1,0,00000000,0,0,0,1,0,0,0,"No Streams","No Streams","No Streams"
92,92,0,fec3,fe9d,fe9d,0,feed,fedc,1,0,2,1,0,0,ffe8,032cff0b01a8ffe8,01a8,ff0b,032c,0,1,0,7fff7fff01aa00e2,0,1,0,00000000,0,0,0,1,0,0,0,"No Streams","No Streams","No Streams"
93,93,0,fecb,fea6,fea6,0,feec,fee6,1,1,3,1,0,0,ffe9,032cff0b019dffe9,019d,ff0b,032c,0,1,0,7fff7fff01ce00dc,0,1,0,00000000,0,0,0,0,0,1,0,"No Streams","No Streams","No Streams"
94,94,0,fec7,fe91,fe91,0,feee,fef5,1,1,7,1,1,0,ffdd,032cff0b01b2ffdd,01b2,ff0b,032c,0,1,0,7fff7fff01d600d8,0,1,0,00000000,0,0,0,1,0,0,0,"No Streams","No Streams","No Streams"
95,95,0,feba,fe8c,fe8c,0,fef4,feca,1,1,7,1,1,0,ffe2,032cff0b01baffe2,01ba,ff0b,032c,0,1,0,7fff7fff01c200e0,0,1,0,00000000,0,0,0,1,0,0,0,"No Streams","No Streams","No Streams"
96,96,0,febc,fe98,fe98,0,fee8,fecb,1,0,0,0,0,0,ffe9,032cff0b01aeffe9,01ae,ff0b,032c,0,1,0,7fff7fff01cc00d4,0,1,0,00000000,0,0,0,1,0,0,0,"No Streams","No Streams","No Streams"
97,97,0,fece,fea7,fea7,0,feeb,fed4,1,0,2,1,0,0,ffe7,032cff0b019bffe7,019b,ff0b,032c,0,1,0,7fff7fff019800e0,0,1,0,00000000,0,0,0,1,0,0,0,"No Streams","No Streams","No Streams"
98,98,0,fed5,fea8,fea8,0,fefc,fee7,1,1,3,1,0,0,ffe3,032cff0b0198ffe3,0198,ff0b,032c,0,1,0,7fff7fff01aa00da,0,1,0,00000000,0,0,0,1,0,0,0,"No Streams","No Streams","No Streams"
99,99,0,fecb,fe94,fe94,0,feec,feee,1,1,7,1,1,0,ffdc,032cff0b01afffdc,01af,ff0b,032c,0,1,0,7fff7fff01ba00bc,0,1,0,00000000,0,0,0,1,0,0,0,"No Streams","No Streams","No Streams"
100,100,0,febb,fe85,fe85,0,fefc,fed5,1,1,7,1,1,0,ffdd,032cff0b01c0ffdd,01c0,ff0b,032c,0,1,0,7fff7fff01bc00f4,0,1,0,00000000,0,0,0,1,0,0,0,"No Streams","No Streams","No Streams"
101,101,0,febd,fe92,fe92,0,fee3,fecd,1,0,0,0,0,0,ffe5,032cff0b01b4ffe5,01b4,ff0b,032c,0,1,0,7fff7fff01c200ea,0,1,0,00000000,0,0,0,1,0,0,0,"No Streams","No Streams","No Streams"
102,102,0,fec7,fea4,fea4,0,fefb,fee1,1,0,2,1,0,0,ffea,032cff0b01a0ffea,01a0,ff0b,032c,0,1,0,7fff7fff01ac00e6,0,1,0,00000000,0,0,0,0,0,1,0,"No Streams","No Streams","No Streams"
103,103,0,fec1,fe9d,fe9d,0,fef9,fee3,1,1,3,1,0,0,ffe9,032cff0b01a8ffe9,01a8,ff0b,032c,0,1,0,7fff7fff01ba00d2,0,1,0,00000000,0,0,0,1,0,0,0,"No Streams","No Streams","No Streams"
104,104,0,fed0,fe94,fe94,0,feeb,feeb,1,1,7,1,1,0,ffd8,032cff0b01adffd8,01ad,ff0b,032c,0,1,0,7fff7fff01c600c2,0,1,0,00000000,0,0,0,1,0,0,0,"No Streams","No Streams","No Streams"
105,105,0,febf,fe86,fe86,0,feee,fee2,1,1,7,1,1,0,ffdb,032cff0b01bfffdb,01bf,ff0b,032c,0,1,0,7fff7fff01c600d0,0,1,0,00000000,0,0,0,1,0,0,0,"No Streams","No Streams","No Streams"
